T05B0 000:013.252   SEGGER J-Link V7.22b Log File
T05B0 000:013.423   DLL Compiled: Jun 17 2021 17:22:49
T05B0 000:013.431   Logging started @ 2022-06-24 14:46
T05B0 000:013.438 - 13.442ms
T05B0 000:013.459 JLINK_SetWarnOutHandler(...)
T05B0 000:013.468 - 0.012ms
T05B0 000:013.477 JLINK_OpenEx(...)
T05B0 000:015.696   Firmware: J-Link V9 compiled May  7 2021 16:26:12
T05B0 000:016.212   Firmware: J-Link V9 compiled May  7 2021 16:26:12
T05B0 000:016.432   Decompressing FW timestamp took 176 us
T05B0 000:025.284   Hardware: V9.40
T05B0 000:025.316   S/N: 59407897
T05B0 000:025.332   OEM: SEGGER
T05B0 000:025.345   Feature(s): GDB, RDI, FlashBP, FlashDL, JFlash, RDDI
T05B0 000:027.453   TELNET listener socket opened on port 19021
T05B0 000:027.594   WEBSRV Starting webserver
T05B0 000:027.834   WEBSRV Webserver running on local port 19080
T05B0 000:027.853 - 14.380ms returns "O.K."
T05B0 000:027.876 JLINK_GetEmuCaps()
T05B0 000:027.885 - 0.012ms returns 0xB9FF7BBF
T05B0 000:027.899 JLINK_TIF_GetAvailable(...)
T05B0 000:028.334 - 0.447ms
T05B0 000:028.356 JLINK_SetErrorOutHandler(...)
T05B0 000:028.365 - 0.012ms
T05B0 000:028.391 JLINK_ExecCommand("ProjectFile = "C:\Users\sunpz\Desktop\cola\cola_os\bsp\SWM181xx\example\JLinkSettings.ini"", ...). 
T05B0 000:044.532   Device "CORTEX-M0" selected.
T05B0 000:045.122 - 16.742ms returns 0x00
T05B0 000:051.297 JLINK_ExecCommand("Device = SWM181xB", ...). 
T05B0 000:059.528   Device "CORTEX-M0" selected.
T05B0 000:060.069 - 8.744ms returns 0x00
T05B0 000:060.152 JLINK_GetHardwareVersion()
T05B0 000:060.162 - 0.013ms returns 94000
T05B0 000:060.171 JLINK_GetDLLVersion()
T05B0 000:060.178 - 0.010ms returns 72202
T05B0 000:060.187 JLINK_GetOEMString(...)
T05B0 000:060.196 JLINK_GetFirmwareString(...)
T05B0 000:060.213 - 0.020ms
T05B0 000:080.013 JLINK_GetDLLVersion()
T05B0 000:080.044 - 0.034ms returns 72202
T05B0 000:080.054 JLINK_GetCompileDateTime()
T05B0 000:080.062 - 0.010ms
T05B0 000:084.334 JLINK_GetFirmwareString(...)
T05B0 000:084.366 - 0.036ms
T05B0 000:088.609 JLINK_GetHardwareVersion()
T05B0 000:088.646 - 0.042ms returns 94000
T05B0 000:092.150 JLINK_GetSN()
T05B0 000:092.185 - 0.039ms returns 59407897
T05B0 000:095.800 JLINK_GetOEMString(...)
T05B0 000:103.217 JLINK_TIF_Select(JLINKARM_TIF_SWD)
T05B0 000:104.978 - 1.789ms returns 0x00
T05B0 000:105.029 JLINK_HasError()
T05B0 000:105.052 JLINK_SetSpeed(5000)
T05B0 000:105.402 - 0.361ms
T05B0 000:105.423 JLINK_GetId()
T05B0 000:110.405   Found SW-DP with ID 0x0BB11477
T05B0 000:119.894   DPIDR: 0x0BB11477
T05B0 000:123.724   Scanning AP map to find all available APs
T05B0 000:129.740   AP[1]: Stopped AP scan as end of AP map has been reached
T05B0 000:134.652   AP[0]: AHB-AP (IDR: 0x04770021)
T05B0 000:138.556   Iterating through AP map to find AHB-AP to use
T05B0 000:143.950   AP[0]: Core found
T05B0 000:147.756   AP[0]: AHB-AP ROM base: 0xE00FF000
T05B0 000:152.406   CPUID register: 0x410CC200. Implementer code: 0x41 (ARM)
T05B0 000:156.800   Found Cortex-M0 r0p0, Little endian.
T05B0 000:258.519   -- Max. mem block: 0x00010E60
T05B0 000:258.980   CPU_ReadMem(4 bytes @ 0xE000EDF0)
T05B0 000:259.474   CPU_WriteMem(4 bytes @ 0xE000EDF0)
T05B0 000:260.045   CPU_ReadMem(4 bytes @ 0xE0002000)
T05B0 000:264.632   FPUnit: 4 code (BP) slots and 0 literal slots
T05B0 000:264.688   CPU_ReadMem(4 bytes @ 0xE000EDFC)
T05B0 000:265.302   CPU_WriteMem(4 bytes @ 0xE000EDFC)
T05B0 000:265.848   CPU_ReadMem(4 bytes @ 0xE0001000)
T05B0 000:266.336   CPU_WriteMem(4 bytes @ 0xE0001000)
T05B0 000:271.042   CoreSight components:
T05B0 000:276.263   ROMTbl[0] @ E00FF000
T05B0 000:276.301   CPU_ReadMem(64 bytes @ 0xE00FF000)
T05B0 000:277.126   CPU_ReadMem(32 bytes @ 0xE000EFE0)
T05B0 000:283.687   ROMTbl[0][0]: E000E000, CID: B105E00D, PID: 000BB008 SCS
T05B0 000:283.713   CPU_ReadMem(32 bytes @ 0xE0001FE0)
T05B0 000:289.437   ROMTbl[0][1]: E0001000, CID: B105E00D, PID: 000BB00A DWT
T05B0 000:289.478   CPU_ReadMem(32 bytes @ 0xE0002FE0)
T05B0 000:293.561   ROMTbl[0][2]: E0002000, CID: B105E00D, PID: 000BB00B FPB
T05B0 000:294.199 - 188.792ms returns 0x0BB11477
T05B0 000:294.234 JLINK_GetDLLVersion()
T05B0 000:294.243 - 0.013ms returns 72202
T05B0 000:294.253 JLINK_CORE_GetFound()
T05B0 000:294.262 - 0.013ms returns 0x60000FF
T05B0 000:294.273 JLINK_GetDebugInfo(0x100 = JLINKARM_ROM_TABLE_ADDR_INDEX)
T05B0 000:294.283   Value=0xE00FF000
T05B0 000:294.297 - 0.028ms returns 0
T05B0 000:298.509 JLINK_GetDebugInfo(0x100 = JLINKARM_ROM_TABLE_ADDR_INDEX)
T05B0 000:298.535   Value=0xE00FF000
T05B0 000:298.545 - 0.038ms returns 0
T05B0 000:298.552 JLINK_GetDebugInfo(0x101 = JLINKARM_DEBUG_INFO_ETM_ADDR_INDEX)
T05B0 000:298.557   Value=0x00000000
T05B0 000:298.565 - 0.018ms returns 0
T05B0 000:298.581 JLINK_ReadMemEx(0xE0041FF0, 0x10 Bytes, Flags = 0x02000004)
T05B0 000:298.617   CPU_ReadMem(16 bytes @ 0xE0041FF0)
T05B0 000:299.316   Data:  00 00 00 00 00 00 00 00 00 00 00 00 00 00 00 00
T05B0 000:299.335 - 0.757ms returns 16 (0x10)
T05B0 000:299.348 JLINK_GetDebugInfo(0x102 = JLINKARM_DEBUG_INFO_MTB_ADDR_INDEX)
T05B0 000:299.356   Value=0x00000000
T05B0 000:299.367 - 0.023ms returns 0
T05B0 000:299.376 JLINK_GetDebugInfo(0x103 = JLINKARM_DEBUG_INFO_TPIU_ADDR_INDEX)
T05B0 000:299.384   Value=0x00000000
T05B0 000:299.394 - 0.021ms returns 0
T05B0 000:299.403 JLINK_ReadMemEx(0xE0040FF0, 0x10 Bytes, Flags = 0x02000004)
T05B0 000:299.418   CPU_ReadMem(16 bytes @ 0xE0040FF0)
T05B0 000:300.069   Data:  00 00 00 00 00 00 00 00 00 00 00 00 00 00 00 00
T05B0 000:300.089 - 0.691ms returns 16 (0x10)
T05B0 000:300.102 JLINK_GetDebugInfo(0x104 = JLINKARM_DEBUG_INFO_ITM_ADDR_INDEX)
T05B0 000:300.114   Value=0xE0000000
T05B0 000:300.125 - 0.026ms returns 0
T05B0 000:300.135 JLINK_GetDebugInfo(0x105 = JLINKARM_DEBUG_INFO_DWT_ADDR_INDEX)
T05B0 000:300.144   Value=0xE0001000
T05B0 000:300.165 - 0.033ms returns 0
T05B0 000:300.179 JLINK_GetDebugInfo(0x106 = JLINKARM_DEBUG_INFO_FPB_ADDR_INDEX)
T05B0 000:300.189   Value=0xE0002000
T05B0 000:300.211 - 0.035ms returns 0
T05B0 000:300.220 JLINK_GetDebugInfo(0x107 = JLINKARM_DEBUG_INFO_NVIC_ADDR_INDEX)
T05B0 000:300.233   Value=0xE000E000
T05B0 000:300.246 - 0.038ms returns 0
T05B0 000:300.264 JLINK_GetDebugInfo(0x10C = JLINKARM_DEBUG_INFO_DBG_ADDR_INDEX)
T05B0 000:300.273   Value=0xE000EDF0
T05B0 000:300.289 - 0.030ms returns 0
T05B0 000:300.300 JLINK_GetDebugInfo(0x01 = Unknown)
T05B0 000:300.318   Value=0x00000000
T05B0 000:300.330 - 0.039ms returns 0
T05B0 000:300.354 JLINK_ReadMemU32(0xE000ED00, 0x1 Items)
T05B0 000:300.372   CPU_ReadMem(4 bytes @ 0xE000ED00)
T05B0 000:301.001   Data:  00 C2 0C 41
T05B0 000:301.025   Debug reg: CPUID
T05B0 000:301.036 - 0.686ms returns 1 (0x1)
T05B0 000:301.047 JLINK_GetDebugInfo(0x10F = JLINKARM_DEBUG_INFO_HAS_CORTEX_M_SECURITY_EXT_INDEX)
T05B0 000:301.057   Value=0x00000000
T05B0 000:301.068 - 0.025ms returns 0
T05B0 000:301.088 JLINK_HasError()
T05B0 000:301.098 JLINK_SetResetType(JLINKARM_CM3_RESET_TYPE_NORMAL)
T05B0 000:301.112 - 0.018ms returns JLINKARM_CM3_RESET_TYPE_NORMAL
T05B0 000:301.122 JLINK_Reset()
T05B0 000:301.153   CPU is running
T05B0 000:301.168   CPU_WriteMem(4 bytes @ 0xE000EDF0)
T05B0 000:301.731   CPU is running
T05B0 000:301.776   CPU_WriteMem(4 bytes @ 0xE000EDFC)
T05B0 000:306.158   Reset: Halt core after reset via DEMCR.VC_CORERESET.
T05B0 000:309.837   Reset: Reset device via AIRCR.SYSRESETREQ.
T05B0 000:309.865   CPU is running
T05B0 000:309.880   CPU_WriteMem(4 bytes @ 0xE000ED0C)
T05B0 000:363.418   CPU_ReadMem(4 bytes @ 0xE000EDF0)
T05B0 000:364.028   CPU_ReadMem(4 bytes @ 0xE000EDF0)
T05B0 000:364.630   CPU is running
T05B0 000:364.650   CPU_WriteMem(4 bytes @ 0xE000EDF0)
T05B0 000:365.149   CPU is running
T05B0 000:365.182   CPU_WriteMem(4 bytes @ 0xE000EDFC)
T05B0 000:370.946   CPU_ReadMem(4 bytes @ 0xE000EDF0)
T05B0 000:373.946   CPU_WriteMem(4 bytes @ 0xE0002000)
T05B0 000:374.542   CPU_ReadMem(4 bytes @ 0xE000EDFC)
T05B0 000:375.121   CPU_ReadMem(4 bytes @ 0xE0001000)
T05B0 000:375.682   CPU_WriteMem(4 bytes @ 0xE0001000)
T05B0 000:376.260 - 75.144ms
T05B0 000:376.282 JLINK_Halt()
T05B0 000:376.290 - 0.012ms returns 0x00
T05B0 000:376.366 JLINK_ReadMemU32(0xE000EDF0, 0x1 Items)
T05B0 000:376.403   CPU_ReadMem(4 bytes @ 0xE000EDF0)
T05B0 000:376.989   Data:  03 00 03 00
T05B0 000:377.005   Debug reg: DHCSR
T05B0 000:377.015 - 0.653ms returns 1 (0x1)
T05B0 000:377.026 JLINK_WriteU32_64(0xE000EDF0, 0xA05F0003)
T05B0 000:377.039   Debug reg: DHCSR
T05B0 000:377.405   CPU_WriteMem(4 bytes @ 0xE000EDF0)
T05B0 000:377.946 - 0.927ms returns 0 (0x00000000)
T05B0 000:377.961 JLINK_WriteU32_64(0xE000EDFC, 0x01000000)
T05B0 000:377.970   Debug reg: DEMCR
T05B0 000:377.987   CPU_WriteMem(4 bytes @ 0xE000EDFC)
T05B0 000:378.503 - 0.568ms returns 0 (0x00000000)
T05B0 000:394.675 JLINK_GetHWStatus(...)
T05B0 000:395.148 - 0.478ms returns 0
T05B0 000:406.798 JLINK_GetNumBPUnits(Type = 0xFFFFFF00)
T05B0 000:406.829 - 0.034ms returns 0x04
T05B0 000:406.838 JLINK_GetNumBPUnits(Type = 0xF0)
T05B0 000:406.846 - 0.011ms returns 0x2000
T05B0 000:406.855 JLINK_GetNumWPUnits()
T05B0 000:406.863 - 0.012ms returns 2
T05B0 000:414.932 JLINK_GetSpeed()
T05B0 000:414.956 - 0.028ms returns 4000
T05B0 000:421.011 JLINK_ReadMemU32(0xE000E004, 0x1 Items)
T05B0 000:421.058   CPU_ReadMem(4 bytes @ 0xE000E004)
T05B0 000:421.661   Data:  00 00 00 00
T05B0 000:421.677 - 0.670ms returns 1 (0x1)
T05B0 000:421.696 JLINK_Halt()
T05B0 000:421.704 - 0.011ms returns 0x00
T05B0 000:421.712 JLINK_IsHalted()
T05B0 000:421.721 - 0.012ms returns TRUE
T05B0 000:427.290 JLINK_WriteMem(0x20000000, 0x31C Bytes, ...)
T05B0 000:427.337   Data:  00 BE 0A E0 0D 78 2D 06 68 40 08 24 40 00 00 D3 ...
T05B0 000:427.663   CPU_WriteMem(796 bytes @ 0x20000000)
T05B0 000:430.949 - 3.677ms returns 0x31C
T05B0 000:431.023 JLINK_HasError()
T05B0 000:431.036 JLINK_WriteReg(R0, 0x00000000)
T05B0 000:431.059 - 0.026ms returns 0
T05B0 000:431.067 JLINK_WriteReg(R1, 0x00B71B00)
T05B0 000:431.074 - 0.010ms returns 0
T05B0 000:431.083 JLINK_WriteReg(R2, 0x00000001)
T05B0 000:431.094 - 0.015ms returns 0
T05B0 000:431.104 JLINK_WriteReg(R3, 0x00000000)
T05B0 000:431.114 - 0.014ms returns 0
T05B0 000:431.124 JLINK_WriteReg(R4, 0x00000000)
T05B0 000:431.137 - 0.017ms returns 0
T05B0 000:431.148 JLINK_WriteReg(R5, 0x00000000)
T05B0 000:431.157 - 0.013ms returns 0
T05B0 000:431.167 JLINK_WriteReg(R6, 0x00000000)
T05B0 000:431.176 - 0.014ms returns 0
T05B0 000:431.187 JLINK_WriteReg(R7, 0x00000000)
T05B0 000:431.197 - 0.014ms returns 0
T05B0 000:431.207 JLINK_WriteReg(R8, 0x00000000)
T05B0 000:431.225 - 0.023ms returns 0
T05B0 000:431.236 JLINK_WriteReg(R9, 0x20000318)
T05B0 000:431.247 - 0.014ms returns 0
T05B0 000:431.256 JLINK_WriteReg(R10, 0x00000000)
T05B0 000:431.266 - 0.014ms returns 0
T05B0 000:431.276 JLINK_WriteReg(R11, 0x00000000)
T05B0 000:431.290 - 0.019ms returns 0
T05B0 000:431.301 JLINK_WriteReg(R12, 0x00000000)
T05B0 000:431.311 - 0.013ms returns 0
T05B0 000:431.320 JLINK_WriteReg(R13 (SP), 0x20001000)
T05B0 000:431.332 - 0.016ms returns 0
T05B0 000:431.343 JLINK_WriteReg(R14, 0x20000001)
T05B0 000:431.354 - 0.015ms returns 0
T05B0 000:431.364 JLINK_WriteReg(R15 (PC), 0x20000020)
T05B0 000:431.377 - 0.017ms returns 0
T05B0 000:431.393 JLINK_WriteReg(XPSR, 0x01000000)
T05B0 000:431.404 - 0.015ms returns 0
T05B0 000:431.415 JLINK_WriteReg(MSP, 0x20001000)
T05B0 000:431.425 - 0.015ms returns 0
T05B0 000:431.437 JLINK_WriteReg(PSP, 0x20001000)
T05B0 000:431.447 - 0.015ms returns 0
T05B0 000:431.459 JLINK_WriteReg(CFBP, 0x00000000)
T05B0 000:431.470 - 0.016ms returns 0
T05B0 000:431.481 JLINK_SetBPEx(Addr = 0x20000000, Type = 0xFFFFFFF2)
T05B0 000:431.502   CPU_ReadMem(4 bytes @ 0x20000000)
T05B0 000:432.091   CPU_WriteMem(4 bytes @ 0x20000000)
T05B0 000:432.731   CPU_ReadMem(4 bytes @ 0x20000000)
T05B0 000:433.448   CPU_WriteMem(4 bytes @ 0x20000000)
T05B0 000:433.992   CPU_ReadMem(2 bytes @ 0x20000000)
T05B0 000:434.460 - 2.985ms returns 0x00000001
T05B0 000:434.473 JLINK_Go()
T05B0 000:434.482   CPU_WriteMem(2 bytes @ 0x20000000)
T05B0 000:435.009   CPU_ReadMem(4 bytes @ 0xE0001000)
T05B0 000:435.517   CPU_WriteMem(4 bytes @ 0xE0001000)
T05B0 000:435.527   CPU_WriteMem(4 bytes @ 0xE0002008)
T05B0 000:435.536   CPU_WriteMem(4 bytes @ 0xE000200C)
T05B0 000:435.544   CPU_WriteMem(4 bytes @ 0xE0002010)
T05B0 000:435.594   CPU_WriteMem(4 bytes @ 0xE0002014)
T05B0 000:436.860   CPU_WriteMem(4 bytes @ 0xE0001004)
T05B0 000:439.669 - 5.205ms
T05B0 000:439.684 JLINK_IsHalted()
T05B0 000:441.933   CPU_ReadMem(2 bytes @ 0x20000000)
T05B0 000:442.459 - 2.792ms returns TRUE
T05B0 000:442.488 JLINK_ReadReg(R15 (PC))
T05B0 000:442.508 - 0.025ms returns 0x20000000
T05B0 000:442.522 JLINK_ClrBPEx(BPHandle = 0x00000001)
T05B0 000:442.535 - 0.018ms returns 0x00
T05B0 000:442.548 JLINK_ReadReg(R0)
T05B0 000:442.560 - 0.017ms returns 0x00000000
T05B0 000:443.359 JLINK_HasError()
T05B0 000:443.375 JLINK_WriteReg(R0, 0x00000000)
T05B0 000:443.388 - 0.016ms returns 0
T05B0 000:443.397 JLINK_WriteReg(R1, 0x00001000)
T05B0 000:443.407 - 0.013ms returns 0
T05B0 000:443.416 JLINK_WriteReg(R2, 0x000000FF)
T05B0 000:443.424 - 0.012ms returns 0
T05B0 000:443.433 JLINK_WriteReg(R3, 0x00000000)
T05B0 000:443.441 - 0.012ms returns 0
T05B0 000:443.451 JLINK_WriteReg(R4, 0x00000000)
T05B0 000:443.459 - 0.011ms returns 0
T05B0 000:443.468 JLINK_WriteReg(R5, 0x00000000)
T05B0 000:443.476 - 0.012ms returns 0
T05B0 000:443.485 JLINK_WriteReg(R6, 0x00000000)
T05B0 000:443.493 - 0.011ms returns 0
T05B0 000:443.502 JLINK_WriteReg(R7, 0x00000000)
T05B0 000:443.510 - 0.012ms returns 0
T05B0 000:443.518 JLINK_WriteReg(R8, 0x00000000)
T05B0 000:443.527 - 0.011ms returns 0
T05B0 000:443.535 JLINK_WriteReg(R9, 0x20000318)
T05B0 000:443.544 - 0.013ms returns 0
T05B0 000:443.553 JLINK_WriteReg(R10, 0x00000000)
T05B0 000:443.562 - 0.012ms returns 0
T05B0 000:443.570 JLINK_WriteReg(R11, 0x00000000)
T05B0 000:443.579 - 0.012ms returns 0
T05B0 000:443.588 JLINK_WriteReg(R12, 0x00000000)
T05B0 000:443.596 - 0.011ms returns 0
T05B0 000:443.605 JLINK_WriteReg(R13 (SP), 0x20001000)
T05B0 000:443.614 - 0.012ms returns 0
T05B0 000:443.623 JLINK_WriteReg(R14, 0x20000001)
T05B0 000:443.632 - 0.012ms returns 0
T05B0 000:443.641 JLINK_WriteReg(R15 (PC), 0x2000028E)
T05B0 000:443.649 - 0.014ms returns 0
T05B0 000:443.663 JLINK_WriteReg(XPSR, 0x01000000)
T05B0 000:443.673 - 0.014ms returns 0
T05B0 000:443.683 JLINK_WriteReg(MSP, 0x20001000)
T05B0 000:443.694 - 0.014ms returns 0
T05B0 000:443.705 JLINK_WriteReg(PSP, 0x20001000)
T05B0 000:443.716 - 0.015ms returns 0
T05B0 000:443.726 JLINK_WriteReg(CFBP, 0x00000000)
T05B0 000:443.734 - 0.012ms returns 0
T05B0 000:443.744 JLINK_SetBPEx(Addr = 0x20000000, Type = 0xFFFFFFF2)
T05B0 000:443.756 - 0.016ms returns 0x00000002
T05B0 000:443.767 JLINK_Go()
T05B0 000:443.784   CPU_ReadMem(4 bytes @ 0xE0001000)
T05B0 000:444.322   CPU_WriteMem(4 bytes @ 0xE0001000)
T05B0 000:447.278 - 3.521ms
T05B0 000:447.297 JLINK_IsHalted()
T05B0 000:449.689   CPU_ReadMem(2 bytes @ 0x20000000)
T05B0 000:450.203 - 2.920ms returns TRUE
T05B0 000:450.226 JLINK_ReadReg(R15 (PC))
T05B0 000:450.248 - 0.026ms returns 0x20000000
T05B0 000:450.261 JLINK_ClrBPEx(BPHandle = 0x00000002)
T05B0 000:450.270 - 0.014ms returns 0x00
T05B0 000:450.286 JLINK_ReadReg(R0)
T05B0 000:450.295 - 0.013ms returns 0x00000001
T05B0 000:450.307 JLINK_HasError()
T05B0 000:450.320 JLINK_WriteReg(R0, 0x00000000)
T05B0 000:450.329 - 0.013ms returns 0
T05B0 000:450.339 JLINK_WriteReg(R1, 0x00001000)
T05B0 000:450.348 - 0.014ms returns 0
T05B0 000:450.358 JLINK_WriteReg(R2, 0x000000FF)
T05B0 000:450.367 - 0.014ms returns 0
T05B0 000:450.379 JLINK_WriteReg(R3, 0x00000000)
T05B0 000:450.393 - 0.018ms returns 0
T05B0 000:450.402 JLINK_WriteReg(R4, 0x00000000)
T05B0 000:450.412 - 0.013ms returns 0
T05B0 000:450.421 JLINK_WriteReg(R5, 0x00000000)
T05B0 000:450.432 - 0.014ms returns 0
T05B0 000:450.440 JLINK_WriteReg(R6, 0x00000000)
T05B0 000:450.449 - 0.012ms returns 0
T05B0 000:450.458 JLINK_WriteReg(R7, 0x00000000)
T05B0 000:450.466 - 0.084ms returns 0
T05B0 000:450.553 JLINK_WriteReg(R8, 0x00000000)
T05B0 000:450.563 - 0.014ms returns 0
T05B0 000:450.572 JLINK_WriteReg(R9, 0x20000318)
T05B0 000:450.581 - 0.012ms returns 0
T05B0 000:450.590 JLINK_WriteReg(R10, 0x00000000)
T05B0 000:450.598 - 0.012ms returns 0
T05B0 000:450.607 JLINK_WriteReg(R11, 0x00000000)
T05B0 000:450.616 - 0.012ms returns 0
T05B0 000:450.624 JLINK_WriteReg(R12, 0x00000000)
T05B0 000:450.632 - 0.011ms returns 0
T05B0 000:450.640 JLINK_WriteReg(R13 (SP), 0x20001000)
T05B0 000:450.649 - 0.013ms returns 0
T05B0 000:450.658 JLINK_WriteReg(R14, 0x20000001)
T05B0 000:450.667 - 0.012ms returns 0
T05B0 000:450.677 JLINK_WriteReg(R15 (PC), 0x20000164)
T05B0 000:450.686 - 0.014ms returns 0
T05B0 000:450.696 JLINK_WriteReg(XPSR, 0x01000000)
T05B0 000:450.705 - 0.012ms returns 0
T05B0 000:450.713 JLINK_WriteReg(MSP, 0x20001000)
T05B0 000:450.722 - 0.012ms returns 0
T05B0 000:450.732 JLINK_WriteReg(PSP, 0x20001000)
T05B0 000:450.741 - 0.012ms returns 0
T05B0 000:450.751 JLINK_WriteReg(CFBP, 0x00000000)
T05B0 000:450.760 - 0.013ms returns 0
T05B0 000:450.771 JLINK_SetBPEx(Addr = 0x20000000, Type = 0xFFFFFFF2)
T05B0 000:450.791 - 0.024ms returns 0x00000003
T05B0 000:450.802 JLINK_Go()
T05B0 000:450.823   CPU_ReadMem(4 bytes @ 0xE0001000)
T05B0 000:451.401   CPU_WriteMem(4 bytes @ 0xE0001000)
T05B0 000:454.378 - 3.587ms
T05B0 000:454.400 JLINK_IsHalted()
T05B0 000:454.972 - 0.579ms returns FALSE
T05B0 000:455.011 JLINK_HasError()
T05B0 000:485.555 JLINK_IsHalted()
T05B0 000:486.142 - 0.602ms returns FALSE
T05B0 000:486.166 JLINK_HasError()
T05B0 000:490.371 JLINK_IsHalted()
T05B0 000:490.968 - 0.609ms returns FALSE
T05B0 000:490.988 JLINK_HasError()
T05B0 000:492.362 JLINK_IsHalted()
T05B0 000:494.875   CPU_ReadMem(2 bytes @ 0x20000000)
T05B0 000:495.384 - 3.033ms returns TRUE
T05B0 000:495.404 JLINK_ReadReg(R15 (PC))
T05B0 000:495.416 - 0.015ms returns 0x20000000
T05B0 000:495.425 JLINK_ClrBPEx(BPHandle = 0x00000003)
T05B0 000:495.433 - 0.012ms returns 0x00
T05B0 000:495.442 JLINK_ReadReg(R0)
T05B0 000:495.450 - 0.011ms returns 0x00000000
T05B0 000:496.083 JLINK_HasError()
T05B0 000:496.100 JLINK_WriteReg(R0, 0x00001000)
T05B0 000:496.111 - 0.013ms returns 0
T05B0 000:496.118 JLINK_WriteReg(R1, 0x00001000)
T05B0 000:496.124 - 0.012ms returns 0
T05B0 000:496.135 JLINK_WriteReg(R2, 0x000000FF)
T05B0 000:496.142 - 0.009ms returns 0
T05B0 000:496.148 JLINK_WriteReg(R3, 0x00000000)
T05B0 000:496.157 - 0.010ms returns 0
T05B0 000:496.163 JLINK_WriteReg(R4, 0x00000000)
T05B0 000:496.171 - 0.011ms returns 0
T05B0 000:496.178 JLINK_WriteReg(R5, 0x00000000)
T05B0 000:496.186 - 0.011ms returns 0
T05B0 000:496.192 JLINK_WriteReg(R6, 0x00000000)
T05B0 000:496.198 - 0.008ms returns 0
T05B0 000:496.205 JLINK_WriteReg(R7, 0x00000000)
T05B0 000:496.210 - 0.008ms returns 0
T05B0 000:496.218 JLINK_WriteReg(R8, 0x00000000)
T05B0 000:496.225 - 0.009ms returns 0
T05B0 000:496.231 JLINK_WriteReg(R9, 0x20000318)
T05B0 000:496.236 - 0.008ms returns 0
T05B0 000:496.245 JLINK_WriteReg(R10, 0x00000000)
T05B0 000:496.251 - 0.011ms returns 0
T05B0 000:496.260 JLINK_WriteReg(R11, 0x00000000)
T05B0 000:496.265 - 0.010ms returns 0
T05B0 000:496.274 JLINK_WriteReg(R12, 0x00000000)
T05B0 000:496.280 - 0.008ms returns 0
T05B0 000:496.286 JLINK_WriteReg(R13 (SP), 0x20001000)
T05B0 000:496.293 - 0.009ms returns 0
T05B0 000:496.299 JLINK_WriteReg(R14, 0x20000001)
T05B0 000:496.305 - 0.008ms returns 0
T05B0 000:496.311 JLINK_WriteReg(R15 (PC), 0x2000028E)
T05B0 000:496.317 - 0.008ms returns 0
T05B0 000:496.323 JLINK_WriteReg(XPSR, 0x01000000)
T05B0 000:496.329 - 0.011ms returns 0
T05B0 000:496.340 JLINK_WriteReg(MSP, 0x20001000)
T05B0 000:496.346 - 0.009ms returns 0
T05B0 000:496.353 JLINK_WriteReg(PSP, 0x20001000)
T05B0 000:496.358 - 0.008ms returns 0
T05B0 000:496.367 JLINK_WriteReg(CFBP, 0x00000000)
T05B0 000:496.375 - 0.010ms returns 0
T05B0 000:496.383 JLINK_SetBPEx(Addr = 0x20000000, Type = 0xFFFFFFF2)
T05B0 000:496.393 - 0.013ms returns 0x00000004
T05B0 000:496.404 JLINK_Go()
T05B0 000:496.423   CPU_ReadMem(4 bytes @ 0xE0001000)
T05B0 000:496.974   CPU_WriteMem(4 bytes @ 0xE0001000)
T05B0 000:499.662 - 3.266ms
T05B0 000:499.676 JLINK_IsHalted()
T05B0 000:502.004   CPU_ReadMem(2 bytes @ 0x20000000)
T05B0 000:502.531 - 2.865ms returns TRUE
T05B0 000:502.549 JLINK_ReadReg(R15 (PC))
T05B0 000:502.564 - 0.019ms returns 0x20000000
T05B0 000:502.573 JLINK_ClrBPEx(BPHandle = 0x00000004)
T05B0 000:502.580 - 0.010ms returns 0x00
T05B0 000:502.588 JLINK_ReadReg(R0)
T05B0 000:502.595 - 0.010ms returns 0x00000001
T05B0 000:502.603 JLINK_HasError()
T05B0 000:502.611 JLINK_WriteReg(R0, 0x00001000)
T05B0 000:502.619 - 0.010ms returns 0
T05B0 000:502.628 JLINK_WriteReg(R1, 0x00001000)
T05B0 000:502.638 - 0.014ms returns 0
T05B0 000:502.647 JLINK_WriteReg(R2, 0x000000FF)
T05B0 000:502.654 - 0.009ms returns 0
T05B0 000:502.664 JLINK_WriteReg(R3, 0x00000000)
T05B0 000:502.671 - 0.010ms returns 0
T05B0 000:502.678 JLINK_WriteReg(R4, 0x00000000)
T05B0 000:502.685 - 0.009ms returns 0
T05B0 000:502.692 JLINK_WriteReg(R5, 0x00000000)
T05B0 000:502.699 - 0.009ms returns 0
T05B0 000:502.706 JLINK_WriteReg(R6, 0x00000000)
T05B0 000:502.713 - 0.009ms returns 0
T05B0 000:502.721 JLINK_WriteReg(R7, 0x00000000)
T05B0 000:502.730 - 0.012ms returns 0
T05B0 000:502.739 JLINK_WriteReg(R8, 0x00000000)
T05B0 000:502.749 - 0.013ms returns 0
T05B0 000:502.758 JLINK_WriteReg(R9, 0x20000318)
T05B0 000:502.767 - 0.014ms returns 0
T05B0 000:502.780 JLINK_WriteReg(R10, 0x00000000)
T05B0 000:502.790 - 0.013ms returns 0
T05B0 000:502.799 JLINK_WriteReg(R11, 0x00000000)
T05B0 000:502.809 - 0.013ms returns 0
T05B0 000:502.818 JLINK_WriteReg(R12, 0x00000000)
T05B0 000:502.827 - 0.012ms returns 0
T05B0 000:502.837 JLINK_WriteReg(R13 (SP), 0x20001000)
T05B0 000:502.847 - 0.014ms returns 0
T05B0 000:502.857 JLINK_WriteReg(R14, 0x20000001)
T05B0 000:502.867 - 0.013ms returns 0
T05B0 000:502.878 JLINK_WriteReg(R15 (PC), 0x20000164)
T05B0 000:502.887 - 0.015ms returns 0
T05B0 000:502.897 JLINK_WriteReg(XPSR, 0x01000000)
T05B0 000:502.909 - 0.015ms returns 0
T05B0 000:502.916 JLINK_WriteReg(MSP, 0x20001000)
T05B0 000:502.923 - 0.009ms returns 0
T05B0 000:502.930 JLINK_WriteReg(PSP, 0x20001000)
T05B0 000:502.937 - 0.009ms returns 0
T05B0 000:502.944 JLINK_WriteReg(CFBP, 0x00000000)
T05B0 000:502.951 - 0.009ms returns 0
T05B0 000:502.958 JLINK_SetBPEx(Addr = 0x20000000, Type = 0xFFFFFFF2)
T05B0 000:502.969 - 0.014ms returns 0x00000005
T05B0 000:502.977 JLINK_Go()
T05B0 000:502.992   CPU_ReadMem(4 bytes @ 0xE0001000)
T05B0 000:503.483   CPU_WriteMem(4 bytes @ 0xE0001000)
T05B0 000:506.686 - 3.719ms
T05B0 000:506.713 JLINK_IsHalted()
T05B0 000:507.193 - 0.484ms returns FALSE
T05B0 000:507.204 JLINK_HasError()
T05B0 000:514.056 JLINK_IsHalted()
T05B0 000:514.621 - 0.571ms returns FALSE
T05B0 000:514.633 JLINK_HasError()
T05B0 000:516.043 JLINK_IsHalted()
T05B0 000:516.540 - 0.500ms returns FALSE
T05B0 000:516.550 JLINK_HasError()
T05B0 000:518.021 JLINK_IsHalted()
T05B0 000:518.560 - 0.545ms returns FALSE
T05B0 000:518.573 JLINK_HasError()
T05B0 000:523.078 JLINK_IsHalted()
T05B0 000:523.629 - 0.559ms returns FALSE
T05B0 000:523.644 JLINK_HasError()
T05B0 000:525.046 JLINK_IsHalted()
T05B0 000:525.500 - 0.458ms returns FALSE
T05B0 000:525.509 JLINK_HasError()
T05B0 000:527.027 JLINK_IsHalted()
T05B0 000:527.631 - 0.616ms returns FALSE
T05B0 000:527.651 JLINK_HasError()
T05B0 000:532.415 JLINK_IsHalted()
T05B0 000:532.978 - 0.581ms returns FALSE
T05B0 000:533.011 JLINK_HasError()
T05B0 000:534.548 JLINK_IsHalted()
T05B0 000:535.117 - 0.581ms returns FALSE
T05B0 000:535.137 JLINK_HasError()
T05B0 000:541.992 JLINK_IsHalted()
T05B0 000:542.577 - 0.598ms returns FALSE
T05B0 000:542.600 JLINK_HasError()
T05B0 000:547.182 JLINK_IsHalted()
T05B0 000:549.782   CPU_ReadMem(2 bytes @ 0x20000000)
T05B0 000:550.391 - 3.226ms returns TRUE
T05B0 000:550.422 JLINK_ReadReg(R15 (PC))
T05B0 000:550.446 - 0.031ms returns 0x20000000
T05B0 000:550.471 JLINK_ClrBPEx(BPHandle = 0x00000005)
T05B0 000:550.495 - 0.031ms returns 0x00
T05B0 000:550.514 JLINK_ReadReg(R0)
T05B0 000:550.532 - 0.025ms returns 0x00000000
T05B0 000:551.473 JLINK_HasError()
T05B0 000:551.503 JLINK_WriteReg(R0, 0x00002000)
T05B0 000:551.525 - 0.030ms returns 0
T05B0 000:551.543 JLINK_WriteReg(R1, 0x00001000)
T05B0 000:551.561 - 0.025ms returns 0
T05B0 000:551.579 JLINK_WriteReg(R2, 0x000000FF)
T05B0 000:551.595 - 0.023ms returns 0
T05B0 000:551.612 JLINK_WriteReg(R3, 0x00000000)
T05B0 000:551.627 - 0.022ms returns 0
T05B0 000:551.645 JLINK_WriteReg(R4, 0x00000000)
T05B0 000:551.662 - 0.024ms returns 0
T05B0 000:551.678 JLINK_WriteReg(R5, 0x00000000)
T05B0 000:551.694 - 0.022ms returns 0
T05B0 000:551.710 JLINK_WriteReg(R6, 0x00000000)
T05B0 000:551.726 - 0.022ms returns 0
T05B0 000:551.743 JLINK_WriteReg(R7, 0x00000000)
T05B0 000:551.760 - 0.024ms returns 0
T05B0 000:551.776 JLINK_WriteReg(R8, 0x00000000)
T05B0 000:551.791 - 0.022ms returns 0
T05B0 000:551.808 JLINK_WriteReg(R9, 0x20000318)
T05B0 000:551.824 - 0.021ms returns 0
T05B0 000:551.838 JLINK_WriteReg(R10, 0x00000000)
T05B0 000:551.853 - 0.021ms returns 0
T05B0 000:551.868 JLINK_WriteReg(R11, 0x00000000)
T05B0 000:551.879 - 0.016ms returns 0
T05B0 000:551.891 JLINK_WriteReg(R12, 0x00000000)
T05B0 000:551.902 - 0.015ms returns 0
T05B0 000:551.913 JLINK_WriteReg(R13 (SP), 0x20001000)
T05B0 000:551.925 - 0.016ms returns 0
T05B0 000:551.937 JLINK_WriteReg(R14, 0x20000001)
T05B0 000:551.947 - 0.015ms returns 0
T05B0 000:551.958 JLINK_WriteReg(R15 (PC), 0x2000028E)
T05B0 000:551.969 - 0.016ms returns 0
T05B0 000:551.981 JLINK_WriteReg(XPSR, 0x01000000)
T05B0 000:551.992 - 0.015ms returns 0
T05B0 000:552.003 JLINK_WriteReg(MSP, 0x20001000)
T05B0 000:552.013 - 0.015ms returns 0
T05B0 000:552.025 JLINK_WriteReg(PSP, 0x20001000)
T05B0 000:552.036 - 0.015ms returns 0
T05B0 000:552.047 JLINK_WriteReg(CFBP, 0x00000000)
T05B0 000:552.058 - 0.015ms returns 0
T05B0 000:552.069 JLINK_SetBPEx(Addr = 0x20000000, Type = 0xFFFFFFF2)
T05B0 000:552.083 - 0.018ms returns 0x00000006
T05B0 000:552.095 JLINK_Go()
T05B0 000:552.117   CPU_ReadMem(4 bytes @ 0xE0001000)
T05B0 000:552.709   CPU_WriteMem(4 bytes @ 0xE0001000)
T05B0 000:555.638 - 3.559ms
T05B0 000:555.664 JLINK_IsHalted()
T05B0 000:557.918   CPU_ReadMem(2 bytes @ 0x20000000)
T05B0 000:558.459 - 2.805ms returns TRUE
T05B0 000:558.478 JLINK_ReadReg(R15 (PC))
T05B0 000:558.490 - 0.015ms returns 0x20000000
T05B0 000:558.499 JLINK_ClrBPEx(BPHandle = 0x00000006)
T05B0 000:558.507 - 0.012ms returns 0x00
T05B0 000:558.520 JLINK_ReadReg(R0)
T05B0 000:558.528 - 0.011ms returns 0x00000001
T05B0 000:558.538 JLINK_HasError()
T05B0 000:558.547 JLINK_WriteReg(R0, 0x00002000)
T05B0 000:558.556 - 0.012ms returns 0
T05B0 000:558.565 JLINK_WriteReg(R1, 0x00001000)
T05B0 000:558.573 - 0.011ms returns 0
T05B0 000:558.582 JLINK_WriteReg(R2, 0x000000FF)
T05B0 000:558.590 - 0.011ms returns 0
T05B0 000:558.599 JLINK_WriteReg(R3, 0x00000000)
T05B0 000:558.606 - 0.011ms returns 0
T05B0 000:558.615 JLINK_WriteReg(R4, 0x00000000)
T05B0 000:558.623 - 0.011ms returns 0
T05B0 000:558.631 JLINK_WriteReg(R5, 0x00000000)
T05B0 000:558.639 - 0.011ms returns 0
T05B0 000:558.647 JLINK_WriteReg(R6, 0x00000000)
T05B0 000:558.655 - 0.011ms returns 0
T05B0 000:558.664 JLINK_WriteReg(R7, 0x00000000)
T05B0 000:558.672 - 0.011ms returns 0
T05B0 000:558.680 JLINK_WriteReg(R8, 0x00000000)
T05B0 000:558.688 - 0.011ms returns 0
T05B0 000:558.697 JLINK_WriteReg(R9, 0x20000318)
T05B0 000:558.704 - 0.011ms returns 0
T05B0 000:558.713 JLINK_WriteReg(R10, 0x00000000)
T05B0 000:558.721 - 0.011ms returns 0
T05B0 000:558.730 JLINK_WriteReg(R11, 0x00000000)
T05B0 000:558.737 - 0.011ms returns 0
T05B0 000:558.746 JLINK_WriteReg(R12, 0x00000000)
T05B0 000:558.753 - 0.011ms returns 0
T05B0 000:558.762 JLINK_WriteReg(R13 (SP), 0x20001000)
T05B0 000:558.770 - 0.012ms returns 0
T05B0 000:558.779 JLINK_WriteReg(R14, 0x20000001)
T05B0 000:558.787 - 0.011ms returns 0
T05B0 000:558.800 JLINK_WriteReg(R15 (PC), 0x20000164)
T05B0 000:558.812 - 0.015ms returns 0
T05B0 000:558.820 JLINK_WriteReg(XPSR, 0x01000000)
T05B0 000:558.828 - 0.011ms returns 0
T05B0 000:558.837 JLINK_WriteReg(MSP, 0x20001000)
T05B0 000:558.845 - 0.012ms returns 0
T05B0 000:558.854 JLINK_WriteReg(PSP, 0x20001000)
T05B0 000:558.862 - 0.011ms returns 0
T05B0 000:558.870 JLINK_WriteReg(CFBP, 0x00000000)
T05B0 000:558.878 - 0.011ms returns 0
T05B0 000:558.887 JLINK_SetBPEx(Addr = 0x20000000, Type = 0xFFFFFFF2)
T05B0 000:558.896 - 0.012ms returns 0x00000007
T05B0 000:558.905 JLINK_Go()
T05B0 000:558.919   CPU_ReadMem(4 bytes @ 0xE0001000)
T05B0 000:559.507   CPU_WriteMem(4 bytes @ 0xE0001000)
T05B0 000:562.521 - 3.626ms
T05B0 000:562.539 JLINK_IsHalted()
T05B0 000:563.013 - 0.477ms returns FALSE
T05B0 000:563.036 JLINK_HasError()
T05B0 000:579.190 JLINK_IsHalted()
T05B0 000:579.713 - 0.529ms returns FALSE
T05B0 000:579.727 JLINK_HasError()
T05B0 000:580.937 JLINK_IsHalted()
T05B0 000:581.482 - 0.553ms returns FALSE
T05B0 000:581.500 JLINK_HasError()
T05B0 000:582.966 JLINK_IsHalted()
T05B0 000:583.490 - 0.541ms returns FALSE
T05B0 000:583.521 JLINK_HasError()
T05B0 000:596.517 JLINK_IsHalted()
T05B0 000:597.158 - 0.651ms returns FALSE
T05B0 000:597.180 JLINK_HasError()
T05B0 000:598.510 JLINK_IsHalted()
T05B0 000:599.077 - 0.572ms returns FALSE
T05B0 000:599.089 JLINK_HasError()
T05B0 000:605.630 JLINK_IsHalted()
T05B0 000:607.936   CPU_ReadMem(2 bytes @ 0x20000000)
T05B0 000:608.422 - 2.796ms returns TRUE
T05B0 000:608.432 JLINK_ReadReg(R15 (PC))
T05B0 000:608.441 - 0.011ms returns 0x20000000
T05B0 000:608.447 JLINK_ClrBPEx(BPHandle = 0x00000007)
T05B0 000:608.454 - 0.009ms returns 0x00
T05B0 000:608.460 JLINK_ReadReg(R0)
T05B0 000:608.466 - 0.008ms returns 0x00000000
T05B0 000:608.800 JLINK_HasError()
T05B0 000:608.816 JLINK_WriteReg(R0, 0x00000001)
T05B0 000:608.825 - 0.013ms returns 0
T05B0 000:608.834 JLINK_WriteReg(R1, 0x00001000)
T05B0 000:608.840 - 0.010ms returns 0
T05B0 000:608.849 JLINK_WriteReg(R2, 0x000000FF)
T05B0 000:608.855 - 0.008ms returns 0
T05B0 000:608.862 JLINK_WriteReg(R3, 0x00000000)
T05B0 000:608.867 - 0.010ms returns 0
T05B0 000:608.876 JLINK_WriteReg(R4, 0x00000000)
T05B0 000:608.882 - 0.008ms returns 0
T05B0 000:608.889 JLINK_WriteReg(R5, 0x00000000)
T05B0 000:608.897 - 0.011ms returns 0
T05B0 000:608.904 JLINK_WriteReg(R6, 0x00000000)
T05B0 000:608.909 - 0.008ms returns 0
T05B0 000:608.916 JLINK_WriteReg(R7, 0x00000000)
T05B0 000:608.922 - 0.012ms returns 0
T05B0 000:608.932 JLINK_WriteReg(R8, 0x00000000)
T05B0 000:608.938 - 0.008ms returns 0
T05B0 000:608.944 JLINK_WriteReg(R9, 0x20000318)
T05B0 000:608.950 - 0.008ms returns 0
T05B0 000:608.956 JLINK_WriteReg(R10, 0x00000000)
T05B0 000:608.962 - 0.008ms returns 0
T05B0 000:608.969 JLINK_WriteReg(R11, 0x00000000)
T05B0 000:608.975 - 0.008ms returns 0
T05B0 000:608.981 JLINK_WriteReg(R12, 0x00000000)
T05B0 000:608.987 - 0.008ms returns 0
T05B0 000:608.994 JLINK_WriteReg(R13 (SP), 0x20001000)
T05B0 000:609.000 - 0.009ms returns 0
T05B0 000:609.007 JLINK_WriteReg(R14, 0x20000001)
T05B0 000:609.013 - 0.008ms returns 0
T05B0 000:609.020 JLINK_WriteReg(R15 (PC), 0x20000050)
T05B0 000:609.025 - 0.008ms returns 0
T05B0 000:609.032 JLINK_WriteReg(XPSR, 0x01000000)
T05B0 000:609.038 - 0.008ms returns 0
T05B0 000:609.044 JLINK_WriteReg(MSP, 0x20001000)
T05B0 000:609.050 - 0.008ms returns 0
T05B0 000:609.057 JLINK_WriteReg(PSP, 0x20001000)
T05B0 000:609.063 - 0.008ms returns 0
T05B0 000:609.069 JLINK_WriteReg(CFBP, 0x00000000)
T05B0 000:609.075 - 0.008ms returns 0
T05B0 000:609.082 JLINK_SetBPEx(Addr = 0x20000000, Type = 0xFFFFFFF2)
T05B0 000:609.089 - 0.010ms returns 0x00000008
T05B0 000:609.096 JLINK_Go()
T05B0 000:609.108   CPU_ReadMem(4 bytes @ 0xE0001000)
T05B0 000:609.584   CPU_WriteMem(4 bytes @ 0xE0001000)
T05B0 000:612.290 - 3.203ms
T05B0 000:612.310 JLINK_IsHalted()
T05B0 000:614.839   CPU_ReadMem(2 bytes @ 0x20000000)
T05B0 000:615.348 - 3.044ms returns TRUE
T05B0 000:615.430 JLINK_ReadReg(R15 (PC))
T05B0 000:615.446 - 0.019ms returns 0x20000000
T05B0 000:615.455 JLINK_ClrBPEx(BPHandle = 0x00000008)
T05B0 000:615.464 - 0.014ms returns 0x00
T05B0 000:615.478 JLINK_ReadReg(R0)
T05B0 000:615.486 - 0.012ms returns 0x00000000
T05B0 000:682.922 JLINK_WriteMem(0x20000000, 0x31C Bytes, ...)
T05B0 000:682.951   Data:  00 BE 0A E0 0D 78 2D 06 68 40 08 24 40 00 00 D3 ...
T05B0 000:682.992   CPU_WriteMem(796 bytes @ 0x20000000)
T05B0 000:686.350 - 3.456ms returns 0x31C
T05B0 000:686.505 JLINK_HasError()
T05B0 000:686.535 JLINK_WriteReg(R0, 0x00000000)
T05B0 000:686.557 - 0.028ms returns 0
T05B0 000:686.572 JLINK_WriteReg(R1, 0x00B71B00)
T05B0 000:686.590 - 0.024ms returns 0
T05B0 000:686.606 JLINK_WriteReg(R2, 0x00000002)
T05B0 000:686.625 - 0.025ms returns 0
T05B0 000:686.644 JLINK_WriteReg(R3, 0x00000000)
T05B0 000:686.657 - 0.019ms returns 0
T05B0 000:686.673 JLINK_WriteReg(R4, 0x00000000)
T05B0 000:686.692 - 0.028ms returns 0
T05B0 000:686.712 JLINK_WriteReg(R5, 0x00000000)
T05B0 000:686.725 - 0.025ms returns 0
T05B0 000:686.748 JLINK_WriteReg(R6, 0x00000000)
T05B0 000:686.761 - 0.019ms returns 0
T05B0 000:686.776 JLINK_WriteReg(R7, 0x00000000)
T05B0 000:686.789 - 0.018ms returns 0
T05B0 000:686.803 JLINK_WriteReg(R8, 0x00000000)
T05B0 000:686.826 - 0.028ms returns 0
T05B0 000:686.840 JLINK_WriteReg(R9, 0x20000318)
T05B0 000:686.852 - 0.018ms returns 0
T05B0 000:686.869 JLINK_WriteReg(R10, 0x00000000)
T05B0 000:686.884 - 0.021ms returns 0
T05B0 000:686.899 JLINK_WriteReg(R11, 0x00000000)
T05B0 000:686.911 - 0.019ms returns 0
T05B0 000:686.928 JLINK_WriteReg(R12, 0x00000000)
T05B0 000:686.943 - 0.020ms returns 0
T05B0 000:686.957 JLINK_WriteReg(R13 (SP), 0x20001000)
T05B0 000:686.977 - 0.025ms returns 0
T05B0 000:686.991 JLINK_WriteReg(R14, 0x20000001)
T05B0 000:687.004 - 0.019ms returns 0
T05B0 000:687.018 JLINK_WriteReg(R15 (PC), 0x20000020)
T05B0 000:687.036 - 0.027ms returns 0
T05B0 000:687.055 JLINK_WriteReg(XPSR, 0x01000000)
T05B0 000:687.068 - 0.019ms returns 0
T05B0 000:687.089 JLINK_WriteReg(MSP, 0x20001000)
T05B0 000:687.102 - 0.024ms returns 0
T05B0 000:687.127 JLINK_WriteReg(PSP, 0x20001000)
T05B0 000:687.144 - 0.023ms returns 0
T05B0 000:687.158 JLINK_WriteReg(CFBP, 0x00000000)
T05B0 000:687.171 - 0.019ms returns 0
T05B0 000:687.185 JLINK_SetBPEx(Addr = 0x20000000, Type = 0xFFFFFFF2)
T05B0 000:687.208   CPU_ReadMem(4 bytes @ 0x20000000)
T05B0 000:687.974   CPU_WriteMem(4 bytes @ 0x20000000)
T05B0 000:688.707   CPU_ReadMem(4 bytes @ 0x20000000)
T05B0 000:689.293   CPU_WriteMem(4 bytes @ 0x20000000)
T05B0 000:689.982   CPU_ReadMem(2 bytes @ 0x20000000)
T05B0 000:690.633 - 3.455ms returns 0x00000009
T05B0 000:690.653 JLINK_Go()
T05B0 000:690.671   CPU_WriteMem(2 bytes @ 0x20000000)
T05B0 000:691.390   CPU_ReadMem(4 bytes @ 0xE0001000)
T05B0 000:692.005   CPU_WriteMem(4 bytes @ 0xE0001000)
T05B0 000:695.494 - 4.867ms
T05B0 000:695.540 JLINK_IsHalted()
T05B0 000:698.022   CPU_ReadMem(2 bytes @ 0x20000000)
T05B0 000:698.654 - 3.137ms returns TRUE
T05B0 000:698.709 JLINK_ReadReg(R15 (PC))
T05B0 000:698.736 - 0.036ms returns 0x20000000
T05B0 000:698.763 JLINK_ClrBPEx(BPHandle = 0x00000009)
T05B0 000:698.785 - 0.031ms returns 0x00
T05B0 000:698.811 JLINK_ReadReg(R0)
T05B0 000:698.832 - 0.031ms returns 0x00000000
T05B0 000:699.656 JLINK_WriteMem(0x2000031C, 0xE4 Bytes, ...)
T05B0 000:699.696   Data:  E8 0B 00 20 D9 00 00 00 DD 00 00 00 DF 00 00 00 ...
T05B0 000:699.749   CPU_WriteMem(228 bytes @ 0x2000031C)
T05B0 000:701.261 - 1.635ms returns 0xE4
T05B0 000:701.303 JLINK_WriteMem(0x20000400, 0x1C Bytes, ...)
T05B0 000:701.318   Data:  FE E7 FE E7 FE E7 FE E7 FE E7 FE E7 FE E7 FE E7 ...
T05B0 000:701.359   CPU_WriteMem(28 bytes @ 0x20000400)
T05B0 000:702.106 - 0.830ms returns 0x1C
T05B0 000:702.154 JLINK_HasError()
T05B0 000:702.183 JLINK_WriteReg(R0, 0x00000000)
T05B0 000:702.217 - 0.045ms returns 0
T05B0 000:702.245 JLINK_WriteReg(R1, 0x00000100)
T05B0 000:702.267 - 0.031ms returns 0
T05B0 000:702.296 JLINK_WriteReg(R2, 0x2000031C)
T05B0 000:702.322 - 0.033ms returns 0
T05B0 000:702.341 JLINK_WriteReg(R3, 0x00000000)
T05B0 000:702.358 - 0.025ms returns 0
T05B0 000:702.377 JLINK_WriteReg(R4, 0x00000000)
T05B0 000:702.397 - 0.028ms returns 0
T05B0 000:702.417 JLINK_WriteReg(R5, 0x00000000)
T05B0 000:702.436 - 0.027ms returns 0
T05B0 000:702.454 JLINK_WriteReg(R6, 0x00000000)
T05B0 000:702.473 - 0.027ms returns 0
T05B0 000:702.493 JLINK_WriteReg(R7, 0x00000000)
T05B0 000:702.512 - 0.028ms returns 0
T05B0 000:702.533 JLINK_WriteReg(R8, 0x00000000)
T05B0 000:702.553 - 0.028ms returns 0
T05B0 000:702.573 JLINK_WriteReg(R9, 0x20000318)
T05B0 000:702.593 - 0.027ms returns 0
T05B0 000:702.612 JLINK_WriteReg(R10, 0x00000000)
T05B0 000:702.633 - 0.030ms returns 0
T05B0 000:702.654 JLINK_WriteReg(R11, 0x00000000)
T05B0 000:702.677 - 0.031ms returns 0
T05B0 000:702.698 JLINK_WriteReg(R12, 0x00000000)
T05B0 000:702.718 - 0.029ms returns 0
T05B0 000:702.739 JLINK_WriteReg(R13 (SP), 0x20001000)
T05B0 000:702.759 - 0.031ms returns 0
T05B0 000:702.784 JLINK_WriteReg(R14, 0x20000001)
T05B0 000:702.807 - 0.032ms returns 0
T05B0 000:702.829 JLINK_WriteReg(R15 (PC), 0x200001B8)
T05B0 000:702.849 - 0.028ms returns 0
T05B0 000:702.873 JLINK_WriteReg(XPSR, 0x01000000)
T05B0 000:702.895 - 0.030ms returns 0
T05B0 000:702.916 JLINK_WriteReg(MSP, 0x20001000)
T05B0 000:702.933 - 0.024ms returns 0
T05B0 000:702.952 JLINK_WriteReg(PSP, 0x20001000)
T05B0 000:702.968 - 0.024ms returns 0
T05B0 000:702.986 JLINK_WriteReg(CFBP, 0x00000000)
T05B0 000:703.003 - 0.025ms returns 0
T05B0 000:703.022 JLINK_SetBPEx(Addr = 0x20000000, Type = 0xFFFFFFF2)
T05B0 000:703.043 - 0.028ms returns 0x0000000A
T05B0 000:703.063 JLINK_Go()
T05B0 000:703.095   CPU_ReadMem(4 bytes @ 0xE0001000)
T05B0 000:703.732   CPU_WriteMem(4 bytes @ 0xE0001000)
T05B0 000:706.715 - 3.676ms
T05B0 000:706.752 JLINK_IsHalted()
T05B0 000:707.267 - 0.522ms returns FALSE
T05B0 000:707.287 JLINK_HasError()
T05B0 000:720.452 JLINK_IsHalted()
T05B0 000:722.915   CPU_ReadMem(2 bytes @ 0x20000000)
T05B0 000:723.532 - 3.097ms returns TRUE
T05B0 000:723.569 JLINK_ReadReg(R15 (PC))
T05B0 000:723.594 - 0.034ms returns 0x20000000
T05B0 000:723.615 JLINK_ClrBPEx(BPHandle = 0x0000000A)
T05B0 000:723.635 - 0.028ms returns 0x00
T05B0 000:723.656 JLINK_ReadReg(R0)
T05B0 000:723.673 - 0.026ms returns 0x00000000
T05B0 000:726.015 JLINK_WriteMem(0x2000031C, 0xE4 Bytes, ...)
T05B0 000:726.043   Data:  FE E7 FE E7 FE E7 FE E7 FE E7 FE E7 FE E7 FE E7 ...
T05B0 000:726.079   CPU_WriteMem(228 bytes @ 0x2000031C)
T05B0 000:727.535 - 1.550ms returns 0xE4
T05B0 000:727.584 JLINK_WriteMem(0x20000400, 0x1C Bytes, ...)
T05B0 000:727.604   Data:  01 20 08 62 80 07 01 68 49 08 49 00 01 60 01 68 ...
T05B0 000:727.648   CPU_WriteMem(28 bytes @ 0x20000400)
T05B0 000:728.310 - 0.742ms returns 0x1C
T05B0 000:728.339 JLINK_HasError()
T05B0 000:728.357 JLINK_WriteReg(R0, 0x00000100)
T05B0 000:728.375 - 0.024ms returns 0
T05B0 000:728.390 JLINK_WriteReg(R1, 0x00000100)
T05B0 000:728.403 - 0.019ms returns 0
T05B0 000:728.417 JLINK_WriteReg(R2, 0x2000031C)
T05B0 000:728.430 - 0.019ms returns 0
T05B0 000:728.444 JLINK_WriteReg(R3, 0x00000000)
T05B0 000:728.457 - 0.018ms returns 0
T05B0 000:728.471 JLINK_WriteReg(R4, 0x00000000)
T05B0 000:728.483 - 0.019ms returns 0
T05B0 000:728.498 JLINK_WriteReg(R5, 0x00000000)
T05B0 000:728.510 - 0.019ms returns 0
T05B0 000:728.525 JLINK_WriteReg(R6, 0x00000000)
T05B0 000:728.538 - 0.018ms returns 0
T05B0 000:728.552 JLINK_WriteReg(R7, 0x00000000)
T05B0 000:728.564 - 0.018ms returns 0
T05B0 000:728.578 JLINK_WriteReg(R8, 0x00000000)
T05B0 000:728.591 - 0.018ms returns 0
T05B0 000:728.605 JLINK_WriteReg(R9, 0x20000318)
T05B0 000:728.617 - 0.018ms returns 0
T05B0 000:728.631 JLINK_WriteReg(R10, 0x00000000)
T05B0 000:728.644 - 0.018ms returns 0
T05B0 000:728.658 JLINK_WriteReg(R11, 0x00000000)
T05B0 000:728.671 - 0.018ms returns 0
T05B0 000:728.685 JLINK_WriteReg(R12, 0x00000000)
T05B0 000:728.698 - 0.025ms returns 0
T05B0 000:728.722 JLINK_WriteReg(R13 (SP), 0x20001000)
T05B0 000:728.737 - 0.020ms returns 0
T05B0 000:728.751 JLINK_WriteReg(R14, 0x20000001)
T05B0 000:728.764 - 0.018ms returns 0
T05B0 000:728.778 JLINK_WriteReg(R15 (PC), 0x200001B8)
T05B0 000:728.791 - 0.019ms returns 0
T05B0 000:728.805 JLINK_WriteReg(XPSR, 0x01000000)
T05B0 000:728.818 - 0.018ms returns 0
T05B0 000:728.831 JLINK_WriteReg(MSP, 0x20001000)
T05B0 000:728.844 - 0.018ms returns 0
T05B0 000:728.858 JLINK_WriteReg(PSP, 0x20001000)
T05B0 000:728.871 - 0.018ms returns 0
T05B0 000:728.885 JLINK_WriteReg(CFBP, 0x00000000)
T05B0 000:728.898 - 0.018ms returns 0
T05B0 000:728.918 JLINK_SetBPEx(Addr = 0x20000000, Type = 0xFFFFFFF2)
T05B0 000:728.933 - 0.021ms returns 0x0000000B
T05B0 000:728.948 JLINK_Go()
T05B0 000:728.973   CPU_ReadMem(4 bytes @ 0xE0001000)
T05B0 000:729.515   CPU_WriteMem(4 bytes @ 0xE0001000)
T05B0 000:732.513 - 3.590ms
T05B0 000:732.555 JLINK_IsHalted()
T05B0 000:735.148   CPU_ReadMem(2 bytes @ 0x20000000)
T05B0 000:735.741 - 3.200ms returns TRUE
T05B0 000:735.771 JLINK_ReadReg(R15 (PC))
T05B0 000:735.796 - 0.033ms returns 0x20000000
T05B0 000:735.817 JLINK_ClrBPEx(BPHandle = 0x0000000B)
T05B0 000:735.836 - 0.043ms returns 0x00
T05B0 000:735.873 JLINK_ReadReg(R0)
T05B0 000:735.901 - 0.036ms returns 0x00000000
T05B0 000:737.692 JLINK_WriteMem(0x2000031C, 0xE4 Bytes, ...)
T05B0 000:737.728   Data:  08 60 01 20 80 07 01 68 02 22 11 43 01 60 01 68 ...
T05B0 000:737.762   CPU_WriteMem(228 bytes @ 0x2000031C)
T05B0 000:739.317 - 1.648ms returns 0xE4
T05B0 000:739.357 JLINK_WriteMem(0x20000400, 0x1C Bytes, ...)
T05B0 000:739.373   Data:  10 BD 10 B5 1E A0 02 F0 19 F9 00 23 02 22 01 21 ...
T05B0 000:739.406   CPU_WriteMem(28 bytes @ 0x20000400)
T05B0 000:740.058 - 0.721ms returns 0x1C
T05B0 000:740.091 JLINK_HasError()
T05B0 000:740.108 JLINK_WriteReg(R0, 0x00000200)
T05B0 000:740.135 - 0.033ms returns 0
T05B0 000:740.153 JLINK_WriteReg(R1, 0x00000100)
T05B0 000:740.170 - 0.026ms returns 0
T05B0 000:740.189 JLINK_WriteReg(R2, 0x2000031C)
T05B0 000:740.206 - 0.024ms returns 0
T05B0 000:740.224 JLINK_WriteReg(R3, 0x00000000)
T05B0 000:740.244 - 0.028ms returns 0
T05B0 000:740.263 JLINK_WriteReg(R4, 0x00000000)
T05B0 000:740.280 - 0.024ms returns 0
T05B0 000:740.298 JLINK_WriteReg(R5, 0x00000000)
T05B0 000:740.315 - 0.024ms returns 0
T05B0 000:740.334 JLINK_WriteReg(R6, 0x00000000)
T05B0 000:740.350 - 0.025ms returns 0
T05B0 000:740.369 JLINK_WriteReg(R7, 0x00000000)
T05B0 000:740.386 - 0.027ms returns 0
T05B0 000:740.409 JLINK_WriteReg(R8, 0x00000000)
T05B0 000:740.428 - 0.028ms returns 0
T05B0 000:740.448 JLINK_WriteReg(R9, 0x20000318)
T05B0 000:740.466 - 0.026ms returns 0
T05B0 000:740.486 JLINK_WriteReg(R10, 0x00000000)
T05B0 000:740.506 - 0.027ms returns 0
T05B0 000:740.525 JLINK_WriteReg(R11, 0x00000000)
T05B0 000:740.547 - 0.029ms returns 0
T05B0 000:740.567 JLINK_WriteReg(R12, 0x00000000)
T05B0 000:740.586 - 0.035ms returns 0
T05B0 000:740.621 JLINK_WriteReg(R13 (SP), 0x20001000)
T05B0 000:740.640 - 0.028ms returns 0
T05B0 000:740.663 JLINK_WriteReg(R14, 0x20000001)
T05B0 000:740.682 - 0.029ms returns 0
T05B0 000:740.703 JLINK_WriteReg(R15 (PC), 0x200001B8)
T05B0 000:740.720 - 0.024ms returns 0
T05B0 000:740.738 JLINK_WriteReg(XPSR, 0x01000000)
T05B0 000:740.755 - 0.025ms returns 0
T05B0 000:740.774 JLINK_WriteReg(MSP, 0x20001000)
T05B0 000:740.791 - 0.025ms returns 0
T05B0 000:740.810 JLINK_WriteReg(PSP, 0x20001000)
T05B0 000:740.827 - 0.025ms returns 0
T05B0 000:740.850 JLINK_WriteReg(CFBP, 0x00000000)
T05B0 000:740.868 - 0.027ms returns 0
T05B0 000:740.888 JLINK_SetBPEx(Addr = 0x20000000, Type = 0xFFFFFFF2)
T05B0 000:740.908 - 0.031ms returns 0x0000000C
T05B0 000:740.931 JLINK_Go()
T05B0 000:740.955   CPU_ReadMem(4 bytes @ 0xE0001000)
T05B0 000:741.468   CPU_WriteMem(4 bytes @ 0xE0001000)
T05B0 000:744.323 - 3.407ms
T05B0 000:744.350 JLINK_IsHalted()
T05B0 000:744.860 - 0.519ms returns FALSE
T05B0 000:744.880 JLINK_HasError()
T05B0 000:748.929 JLINK_IsHalted()
T05B0 000:751.501   CPU_ReadMem(2 bytes @ 0x20000000)
T05B0 000:752.171 - 3.254ms returns TRUE
T05B0 000:752.201 JLINK_ReadReg(R15 (PC))
T05B0 000:752.219 - 0.024ms returns 0x20000000
T05B0 000:752.234 JLINK_ClrBPEx(BPHandle = 0x0000000C)
T05B0 000:752.248 - 0.020ms returns 0x00
T05B0 000:752.267 JLINK_ReadReg(R0)
T05B0 000:752.280 - 0.019ms returns 0x00000000
T05B0 000:753.197 JLINK_WriteMem(0x2000031C, 0xE4 Bytes, ...)
T05B0 000:753.225   Data:  10 BD 10 B5 00 F0 32 FC 10 BD 10 B5 00 F0 4E FC ...
T05B0 000:753.256   CPU_WriteMem(228 bytes @ 0x2000031C)
T05B0 000:754.757 - 1.573ms returns 0xE4
T05B0 000:754.783 JLINK_WriteMem(0x20000400, 0x1C Bytes, ...)
T05B0 000:754.797   Data:  01 F0 C6 F8 F5 E7 F8 B5 07 46 0E 46 00 24 21 4D ...
T05B0 000:754.825   CPU_WriteMem(28 bytes @ 0x20000400)
T05B0 000:755.549 - 0.774ms returns 0x1C
T05B0 000:755.569 JLINK_HasError()
T05B0 000:755.584 JLINK_WriteReg(R0, 0x00000300)
T05B0 000:755.601 - 0.023ms returns 0
T05B0 000:755.616 JLINK_WriteReg(R1, 0x00000100)
T05B0 000:755.629 - 0.019ms returns 0
T05B0 000:755.643 JLINK_WriteReg(R2, 0x2000031C)
T05B0 000:755.656 - 0.019ms returns 0
T05B0 000:755.671 JLINK_WriteReg(R3, 0x00000000)
T05B0 000:755.683 - 0.018ms returns 0
T05B0 000:755.697 JLINK_WriteReg(R4, 0x00000000)
T05B0 000:755.710 - 0.019ms returns 0
T05B0 000:755.725 JLINK_WriteReg(R5, 0x00000000)
T05B0 000:755.737 - 0.018ms returns 0
T05B0 000:755.751 JLINK_WriteReg(R6, 0x00000000)
T05B0 000:755.764 - 0.018ms returns 0
T05B0 000:755.781 JLINK_WriteReg(R7, 0x00000000)
T05B0 000:755.799 - 0.024ms returns 0
T05B0 000:755.814 JLINK_WriteReg(R8, 0x00000000)
T05B0 000:755.827 - 0.018ms returns 0
T05B0 000:755.846 JLINK_WriteReg(R9, 0x20000318)
T05B0 000:755.869 - 0.032ms returns 0
T05B0 000:755.888 JLINK_WriteReg(R10, 0x00000000)
T05B0 000:755.908 - 0.027ms returns 0
T05B0 000:755.928 JLINK_WriteReg(R11, 0x00000000)
T05B0 000:755.947 - 0.027ms returns 0
T05B0 000:755.969 JLINK_WriteReg(R12, 0x00000000)
T05B0 000:755.985 - 0.024ms returns 0
T05B0 000:756.005 JLINK_WriteReg(R13 (SP), 0x20001000)
T05B0 000:756.019 - 0.020ms returns 0
T05B0 000:756.034 JLINK_WriteReg(R14, 0x20000001)
T05B0 000:756.050 - 0.023ms returns 0
T05B0 000:756.067 JLINK_WriteReg(R15 (PC), 0x200001B8)
T05B0 000:756.098 - 0.038ms returns 0
T05B0 000:756.118 JLINK_WriteReg(XPSR, 0x01000000)
T05B0 000:756.138 - 0.030ms returns 0
T05B0 000:756.160 JLINK_WriteReg(MSP, 0x20001000)
T05B0 000:756.180 - 0.027ms returns 0
T05B0 000:756.200 JLINK_WriteReg(PSP, 0x20001000)
T05B0 000:756.217 - 0.025ms returns 0
T05B0 000:756.237 JLINK_WriteReg(CFBP, 0x00000000)
T05B0 000:756.256 - 0.027ms returns 0
T05B0 000:756.275 JLINK_SetBPEx(Addr = 0x20000000, Type = 0xFFFFFFF2)
T05B0 000:756.294 - 0.026ms returns 0x0000000D
T05B0 000:756.310 JLINK_Go()
T05B0 000:756.333   CPU_ReadMem(4 bytes @ 0xE0001000)
T05B0 000:756.971   CPU_WriteMem(4 bytes @ 0xE0001000)
T05B0 000:760.057 - 3.766ms
T05B0 000:760.089 JLINK_IsHalted()
T05B0 000:762.410   CPU_ReadMem(2 bytes @ 0x20000000)
T05B0 000:763.141 - 3.063ms returns TRUE
T05B0 000:763.167 JLINK_ReadReg(R15 (PC))
T05B0 000:763.186 - 0.024ms returns 0x20000000
T05B0 000:763.205 JLINK_ClrBPEx(BPHandle = 0x0000000D)
T05B0 000:763.224 - 0.028ms returns 0x00
T05B0 000:763.244 JLINK_ReadReg(R0)
T05B0 000:763.262 - 0.024ms returns 0x00000000
T05B0 000:764.107 JLINK_WriteMem(0x2000031C, 0xE4 Bytes, ...)
T05B0 000:764.134   Data:  00 28 04 D0 64 1C 00 2C F4 D0 00 20 F8 BD 02 2E ...
T05B0 000:764.167   CPU_WriteMem(228 bytes @ 0x2000031C)
T05B0 000:765.642 - 1.543ms returns 0xE4
T05B0 000:765.661 JLINK_WriteMem(0x20000400, 0x1C Bytes, ...)
T05B0 000:765.675   Data:  01 F0 88 F9 20 46 01 F0 46 FB 7F BD D2 E7 F8 B5 ...
T05B0 000:765.697   CPU_WriteMem(28 bytes @ 0x20000400)
T05B0 000:766.336 - 0.682ms returns 0x1C
T05B0 000:766.356 JLINK_HasError()
T05B0 000:766.371 JLINK_WriteReg(R0, 0x00000400)
T05B0 000:766.387 - 0.021ms returns 0
T05B0 000:766.401 JLINK_WriteReg(R1, 0x00000100)
T05B0 000:766.415 - 0.020ms returns 0
T05B0 000:766.436 JLINK_WriteReg(R2, 0x2000031C)
T05B0 000:766.453 - 0.023ms returns 0
T05B0 000:766.467 JLINK_WriteReg(R3, 0x00000000)
T05B0 000:766.480 - 0.018ms returns 0
T05B0 000:766.494 JLINK_WriteReg(R4, 0x00000000)
T05B0 000:766.509 - 0.020ms returns 0
T05B0 000:766.522 JLINK_WriteReg(R5, 0x00000000)
T05B0 000:766.535 - 0.020ms returns 0
T05B0 000:766.551 JLINK_WriteReg(R6, 0x00000000)
T05B0 000:766.568 - 0.022ms returns 0
T05B0 000:766.582 JLINK_WriteReg(R7, 0x00000000)
T05B0 000:766.594 - 0.018ms returns 0
T05B0 000:766.608 JLINK_WriteReg(R8, 0x00000000)
T05B0 000:766.623 - 0.021ms returns 0
T05B0 000:766.637 JLINK_WriteReg(R9, 0x20000318)
T05B0 000:766.649 - 0.018ms returns 0
T05B0 000:766.663 JLINK_WriteReg(R10, 0x00000000)
T05B0 000:766.676 - 0.018ms returns 0
T05B0 000:766.690 JLINK_WriteReg(R11, 0x00000000)
T05B0 000:766.705 - 0.022ms returns 0
T05B0 000:766.723 JLINK_WriteReg(R12, 0x00000000)
T05B0 000:766.738 - 0.020ms returns 0
T05B0 000:766.754 JLINK_WriteReg(R13 (SP), 0x20001000)
T05B0 000:766.767 - 0.019ms returns 0
T05B0 000:766.781 JLINK_WriteReg(R14, 0x20000001)
T05B0 000:766.796 - 0.022ms returns 0
T05B0 000:766.814 JLINK_WriteReg(R15 (PC), 0x200001B8)
T05B0 000:766.829 - 0.023ms returns 0
T05B0 000:766.845 JLINK_WriteReg(XPSR, 0x01000000)
T05B0 000:766.858 - 0.018ms returns 0
T05B0 000:766.871 JLINK_WriteReg(MSP, 0x20001000)
T05B0 000:766.885 - 0.019ms returns 0
T05B0 000:766.899 JLINK_WriteReg(PSP, 0x20001000)
T05B0 000:766.912 - 0.018ms returns 0
T05B0 000:766.925 JLINK_WriteReg(CFBP, 0x00000000)
T05B0 000:766.938 - 0.019ms returns 0
T05B0 000:766.953 JLINK_SetBPEx(Addr = 0x20000000, Type = 0xFFFFFFF2)
T05B0 000:766.967 - 0.020ms returns 0x0000000E
T05B0 000:766.982 JLINK_Go()
T05B0 000:767.005   CPU_ReadMem(4 bytes @ 0xE0001000)
T05B0 000:767.546   CPU_WriteMem(4 bytes @ 0xE0001000)
T05B0 000:770.333 - 3.373ms
